#  HZ   S   RI   R     50.00 
! Rohde & Schwarz Vector Network Analyzer 
! Rohde-Schwarz,ZNB8-4Port,REDACTED,3.12
! Created: UTC 3/23/2026, 9:02:08 PM
! ZX60-P162LN+ -> ZX75BP-1450-S+ -> ZX60-V63+
! freq[Hz]                re:S11                  im:S11                  re:S21                  im:S21                  re:S12                  im:S12                  re:S22                  im:S22
 1.000000000000000E4     1.062620232310890      -4.302360168835114E-2   -1.475444277668006E-4    1.301313950013269E-4    1.536523314016365E-4   -8.490960916553930E-6    1.051205812251125      -3.975646902463530E-2
 4.250995000000000E7    -9.275694807328740E-2   -9.892823978777343E-1   -2.645715516055447E-4    1.343808159359198E-4    7.935017358956073E-5   -2.160038464289108E-5   -1.220165236400644E-1    5.144596647023160E-1
 8.500990000000000E7    -9.633204959001787E-1    1.787698130037087E-1   -5.904378114340396E-5   -3.575251208294246E-4    6.950841428592650E-5   -1.856677961904251E-5    5.365859427115924E-1    2.480459550489435E-2
 1.275098500000000E8     2.591765693023084E-1    9.353186636233669E-1   -2.774188840780143E-4    8.945067187741271E-5   -2.325154120069935E-5    4.241434531620380E-5   -2.648012789227739E-2   -5.375690503579015E-1
 1.700098000000000E8     9.054843021992076E-1   -3.476503232443692E-1    4.002250054070954E-4   -3.425566288420730E-4    8.889196246434780E-5   -7.734175903916067E-5   -5.307302662327963E-1    7.024718425028725E-2
 2.125097500000000E8    -4.280007434877108E-1   -8.598199074639039E-1   -5.845676202219696E-4   -8.935355153716633E-6   -6.764136599289945E-5    2.564076618515225E-5    1.198580000368226E-1    5.221802248881866E-1
 2.550097000000000E8    -8.062506283883725E-1    4.938622157244578E-1   -2.568832453033647E-4    7.779188850682063E-4   -8.494272207473475E-5    3.171927364791858E-5    5.161249662294360E-1   -1.772120207793163E-1
 2.975096500000000E8     5.668414121373010E-1    7.417951682286678E-1    4.029163016393001E-4    2.682396631138394E-4    3.445119930145835E-5   -2.276534820561940E-5   -2.382044553962135E-1   -5.070293449427311E-1
 3.400096000000000E8     6.488289498223623E-1   -6.459873667757534E-1    4.673026557279133E-4   -1.356723212526374E-4    5.673138372198754E-5   -2.696835575075814E-5   -4.880886062850460E-1    3.032537769102584E-1
 3.825095500000000E8    -6.819215469420017E-1   -5.168449558674898E-1   -5.443335698631809E-4   -2.193589173265223E-4    2.759217778156969E-5   -1.313833560797072E-5    3.799050920453131E-1    4.648391865221843E-1
 4.250095000000000E8    -4.286288128637118E-1    6.372132232367753E-1   -1.488896153396932E-3   -9.557108398547746E-4    2.796036418291529E-5   -3.491397086190736E-5    4.393421062257504E-1   -4.571567600131078E-1
 4.675094500000000E8     6.326178878541214E-1    4.037582070257659E-1   -3.635771885031238E-4    2.130196764537291E-3   -7.575481754014744E-5    5.713803920183533E-5   -5.274328396256266E-1   -4.082784981417296E-1
 5.100094000000000E8     3.457603483291191E-1   -6.582620634242788E-1   -1.318271367904469E-5   -1.015095759666764E-3    3.225549944350596E-5    5.022571708753715E-6   -3.711346576814524E-1    5.848796226783097E-1
 5.525093500000000E8    -6.681861868614879E-1   -2.559769636388706E-1   -1.294665552639247E-3    2.678182484751556E-4   -4.841994472606066E-5    1.232156112762480E-5    6.424376900936799E-1    3.335979016067938E-1
 5.950093000000000E8    -1.571857247789228E-1    6.543448858363459E-1    2.585996428323410E-4    6.810714904244538E-4   -4.778815686437912E-5    2.659722560804792E-5    2.987415812658673E-1   -6.905236522232039E-1
 6.375092500000000E8     6.209539928507987E-1    6.338089060999455E-2    1.235810902015619E-3    2.005977261430915E-4    4.762073025537569E-5    9.720682911931230E-6   -7.228776969908093E-1   -2.684651335185722E-1
 6.800092000000000E8    -2.017302056947731E-2   -5.584251500511277E-1   -1.297711108092826E-3   -1.128555990560194E-3   -1.475031454953321E-5   -2.287539813257932E-5   -2.400421302255105E-1    7.439592067249045E-1
 7.225091500000000E8    -4.746452830950945E-1    9.241728574303011E-2   -9.804526421860642E-4    5.747195737136403E-4    2.220953920681185E-5    2.958235584591350E-5    7.630479595245426E-1    2.047929788496900E-1
 7.650091000000000E8     1.489271980911916E-1    3.872774485040328E-1    1.203976186391006E-3    2.788084845513314E-4   -9.379516673161050E-6   -2.823012874083202E-6    1.663256562547589E-1   -7.704557198664447E-1
 8.075090500000000E8     3.026469251734456E-1   -1.864165130368669E-1    6.599028941076925E-4   -1.514544791313602E-3   -3.892290057360752E-6   -1.662379303176382E-5   -7.610900994343659E-1   -1.312237835758895E-1
 8.500090000000000E8    -2.029598268162883E-1   -2.195257238684366E-1   -1.187577487904485E-3    2.691616225103985E-4    1.079876267398522E-5    9.165674380707208E-6   -9.916195586491827E-2    7.529490647275209E-1
 8.925089500000000E8    -1.366536201702239E-1    2.098009349192360E-1   -6.389981016396520E-5   -5.027543715220726E-5   -2.482606645621138E-5   -4.361880848033003E-6    7.462595480905631E-1    4.542515653307833E-2
 9.350089000000000E8     2.129687277197973E-1    6.047820235642115E-2   -3.625382155683860E-3    2.270440050563110E-3    1.672350667005375E-5    5.210167080292105E-5   -3.732835997689398E-2   -7.194782099904291E-1
 9.775088500000000E8    -1.022870837363702E-2   -2.075328219152985E-1    1.330279465957297E-2    1.266553723247835E-2    1.386934233922472E-5    1.206572083897347E-5   -6.632125091026853E-1    1.380975313625365E-1
 1.020008800000000E9    -1.872790211195697E-1    8.107108578188824E-2    2.856358496245916E-2   -6.368268372096519E-2    4.270597558163235E-6   -4.945414204473659E-5    2.518468725390212E-1    5.732637478252107E-1
 1.062508750000000E9     1.543113092077268E-1    1.488830057574142E-1   -2.513729871998746E-1   -1.263772866540202E-2    9.454019225346392E-9   -5.225780366521476E-6    4.281651560667095E-1   -3.724959481397225E-1
 1.105008700000000E9     7.254887234591849E-2   -2.073312873350174E-1    4.823591067829613E-1    9.624508571685795E-1    3.650655108767457E-6    1.108554676974974E-5   -4.654557309944791E-1   -2.029935776634385E-1
 1.147508650000000E9    -1.724808660833478E-1    3.912806590599172E-2    1.400110395265651      -4.376406110494915      -6.448546813745854E-5    2.806458957873929E-5    1.110759659295870E-1    4.635924260134442E-1
 1.190008600000000E9     4.506333074099402E-2    1.608977432763892E-2   -1.687593810002044E1     1.568109785807230E1     1.145984652212090E-4   -9.276175845232243E-5    1.433462473542068E-1   -4.834041691359314E-1
 1.232508550000000E9     1.040810133023896E-2    1.022965524476418E-1    2.990674754696373E1    -8.299663327995827E1    -1.341694218674345E-4    5.765639899710889E-4    1.102015695853070E-1    2.983596352505813E-1
 1.275008500000000E9     1.142294204357772E-1   -4.915694972861433E-2   -5.561315680141311       1.016886525029864E2    -2.621849031589026E-5   -6.519918936248959E-4    2.222979721025070E-2    1.164773286043704E-1
 1.317508450000000E9    -6.341423595744197E-2   -8.466034522618354E-2    2.022887480691415E1    -9.874831757053488E1    -1.226041490654314E-4    6.457421926956883E-4   -8.645215952842843E-2    6.011007359047229E-4
 1.360008400000000E9    -1.188613132365254E-1    3.233814394080273E-2   -5.844169231576613E1     7.273333725414793E1     4.121374139008700E-4   -4.758209268095108E-4    1.205750867045656E-1   -1.156017747626969E-1
 1.402508350000000E9     4.119200924912139E-2    1.485162031358956E-1    9.061955468643713E1    -3.216911825720570E1    -6.721138135346905E-4    2.319020303159094E-4   -1.384584280047306E-1    1.487039097600882E-1
 1.445008300000000E9     1.408114090922228E-1   -2.846864222188320E-2   -9.031772765755360E1    -1.988419366470159E1     6.631579356690166E-4    2.270165019979873E-4    5.151819657876886E-2   -1.256677683456814E-1
 1.487508250000000E9    -3.845292054465620E-3   -1.390604323370432E-1    5.583077106016258E1     6.446284812513807E1    -3.052233949100195E-4   -5.706424139639030E-4    7.000798040774268E-2    1.551289673079858E-1
 1.530008200000000E9    -1.604905620348008E-1    3.408902596953629E-3   -6.553762746202155      -8.609582719765392E1    -9.813943675494234E-5    6.620199831405436E-4   -1.572729118004800E-1   -1.895180947651496E-1
 1.572508150000000E9    -1.936518176136777E-2    1.556674448383104E-1   -3.351980853499986E1     7.037999760273331E1     4.352621088574052E-4   -4.879855207411632E-4    1.837828402974722E-1    1.457720977973340E-1
 1.615008100000000E9     1.369248636495420E-1    5.682682988783985E-2    4.356945931069627E1    -4.266241416051415E1    -4.863201800751621E-4    1.577655887418014E-4   -2.130987276618643E-1    2.138382006711848E-1
 1.657508050000000E9     1.126643950116177E-1   -1.495373471964593E-1   -3.103900489452209E1     9.619624103909118       2.747608221489359E-4    6.516753958580886E-5    4.065900794589536E-1   -4.621232979586365E-1
 1.700008000000000E9    -1.969795722953040E-1   -1.397500350804864E-1    1.220873876041455E1     6.544675691265062      -5.433758959545309E-5   -1.092399875402601E-4   -6.706375906001862E-1    2.747720006900959E-2
 1.742507950000000E9    -1.441477930827921E-1    2.526363663152547E-1   -2.384125210283577E-2   -6.987855891242567      -3.990738457645540E-5    2.240107741286372E-5    2.635328615980960E-1    6.029749706944761E-1
 1.785007900000000E9     2.863184128945200E-1    1.148342495203107E-1   -3.296785001676716       1.960615959928627       7.260148878219230E-5   -9.471826731155754E-6    5.005879317420893E-1   -3.730616185321635E-1
 1.827507850000000E9     5.688939164894027E-2   -2.651158437342575E-1    1.689282309934782       8.986237810675529E-1   -2.849675865615641E-5   -1.129774595976559E-5   -4.246515200585106E-1   -4.055497645993539E-1
 1.870007800000000E9    -2.185679076543585E-1   -3.350544105171695E-2    6.323582664967081E-2   -8.282603241805194E-1    1.619034500155275E-5   -7.073022643116556E-6   -3.402583861189751E-1    4.393195307212471E-1
 1.912507750000000E9    -4.040934834216370E-2    1.849815091657248E-1   -3.737406396426108E-1    5.198892026359860E-2   -1.879652073546264E-5    5.261319052259777E-7    4.294858934176762E-1    2.865341565430179E-1
 1.955007700000000E9     1.497719881714592E-1    6.296895321481266E-2    6.284861480272415E-2    1.700878374636308E-1    3.522518082476249E-5   -8.022300131172270E-7    2.193120445808192E-1   -4.147599758431647E-1
 1.997507650000000E9     8.776649509765554E-2   -1.221950922252305E-1    6.703473131551135E-2   -4.031112985606371E-2   -3.005912454873453E-5    7.871017515809398E-6   -4.022251675167929E-1   -1.508652023215318E-1
 2.040007600000000E9    -1.007501163155378E-1   -1.134923390532070E-1   -1.796044687405395E-2   -2.599729956825674E-2    9.214083314546434E-6    2.284657338014219E-5   -9.112288786278774E-2    3.837333020803501E-1
 2.082507550000000E9    -1.393248224128053E-1    7.548104163762648E-2   -8.668941873100204E-3    6.958713176224238E-3   -1.300029168494513E-5   -4.657490584305945E-5    3.549660578683805E-1    2.378150557548236E-2
 2.125007500000000E9     4.622972877169059E-2    1.550631583869834E-1    7.746542967421946E-4    1.146750251007905E-3    3.988100465809862E-5   -1.313551729800325E-5   -6.492914804740017E-2   -3.268632116147973E-1
 2.167507450000000E9     1.604556788265706E-1   -2.432696410237569E-2   -1.323889306795715E-3    2.038405266908194E-3   -1.561740753693632E-5   -4.014398449428883E-5   -3.112735991270292E-1    1.534189762886385E-1
 2.210007400000000E9    -1.108293240610929E-2   -1.719337587569802E-1    2.841284912372743E-3    1.926004899221830E-3    3.918172034835078E-6    3.163859866956515E-6    2.260627523987780E-1    3.027415392453181E-1
 2.252507350000000E9    -1.885407037086470E-1   -1.368219197061803E-2    1.570873153674660E-3   -2.579611865458612E-3   -1.035953781503120E-5    1.193708303526553E-5    2.945871785070430E-1   -2.946786473123868E-1
 2.295007300000000E9    -4.955052593415411E-2    1.918816037199399E-1   -2.054815785701987E-3   -1.117769506831623E-3    1.333555367016161E-5    3.349243375689855E-5   -3.615394834547334E-1   -2.928007664428886E-1
 2.337507250000000E9     1.802572755398875E-1    7.457897916144329E-2   -7.826082058602321E-4    1.446357253262832E-3   -9.330894302625525E-6   -1.878998067012012E-5   -3.035077326805775E-1    4.146800395869958E-1
 2.380007200000000E9     8.587435781430082E-2   -1.763024443625611E-1    1.179278256144503E-3    6.475541916849842E-4   -1.115733335488721E-5   -1.295216771724655E-5    4.587808640590685E-1    3.185995284735118E-1
 2.422507150000000E9    -1.840080126717538E-1   -1.043162551841665E-1    6.026461973872771E-4   -1.293860459566662E-3    1.346499590668111E-5    2.837554191252241E-5    3.362195674414740E-1   -5.026187453025557E-1
 2.465007100000000E9    -1.387437101298220E-1    1.815446803394991E-1   -1.641359014318626E-3   -6.377746364453409E-4   -1.957752687106734E-5   -5.465514757134619E-5   -5.369019769454986E-1   -3.663097676095126E-1
 2.507507050000000E9     1.620735241141321E-1    1.706389274015440E-1   -8.770844471978008E-4    1.726814007982402E-3   -2.312608678825653E-5    3.702017038828513E-5   -4.037987266084255E-1    5.539866315343251E-1
 2.550007000000000E9     1.898581737207816E-1   -1.418875036526925E-1    1.306472287797398E-3    8.218170910566492E-4   -1.885590784352061E-5   -1.574996044049594E-5    5.696627061177274E-1    4.321427103321436E-1
 2.592506950000000E9    -1.280262586906019E-1   -2.086664365565510E-1    1.975919506179070E-4   -1.429633707114387E-4   -1.500837952383081E-5    1.966438724905604E-5    4.458225844477396E-1   -5.976895185568792E-1
 2.635006900000000E9    -2.354885849816316E-1    1.085221076306230E-1   -7.388121449671121E-3    5.956864493840980E-4   -1.519325298905803E-5   -5.276641023187832E-6   -6.357988628015222E-1   -4.103597608272360E-1
 2.677506850000000E9     8.462653402464579E-2    2.698400156923633E-1   -8.712269069224476E-1    1.202272240332149      -2.133668712579336E-5    4.264721181541141E-5   -2.002236608044145E-1    1.700397214495012E-1
 2.720006800000000E9     2.612098448853118E-1   -5.353238056107084E-2   -3.378327243859018      -2.176546812494746      -3.303911917433242E-5    1.249661812134758E-5    3.363552681836608E-1    6.325835099466423E-1
 2.762506750000000E9    -4.180764307064996E-2   -2.791373920679810E-1    1.531463636771832E1     3.699757486889382       1.869572550974970E-4   -1.956776943821685E-4    4.924228223197480E-1   -2.024005246029039E-1
 2.805006700000000E9    -2.882635692544763E-1   -2.209067557140548E-3   -6.755685851589243      -5.111404845088759      -1.059898340097961E-4    7.721946803454353E-5   -3.376243654656784E-1   -6.478445442573565E-1
 2.847506650000000E9    -5.070331424297154E-2    3.000671642131799E-1   -2.912812814973138       1.028088120629336E1     1.241149322961976E-4    1.594666621411056E-4   -5.140875777981786E-1    4.051671625915796E-1
 2.890006600000000E9     3.025288133494007E-1    9.590168081170009E-2    1.763660809464349E1    -8.500956954164494       1.148844337215916E-4   -3.420351498093581E-4    2.131601679830526E-1    1.639754850700136E-1
 2.932506550000000E9     1.309629659207725E-1   -2.836158276208602E-1   -2.109989947979984E1    -9.725249658317351E-1   -3.104108977943354E-4    2.544540157929388E-4    4.229786292516650E-1    2.361751264284014E-1
 2.975006500000000E9    -2.592513591061677E-1   -1.679598426883265E-1    8.652784919310411       1.373775617099343E1     2.571503983743346E-4    9.426365029443590E-5    5.789109532970116E-2   -6.287670713225040E-1
 3.017506450000000E9    -2.022392738221812E-1    2.383053483201687E-1    9.322536343425238      -1.139184911792508E1     1.381662883398511E-5   -2.777903676380044E-4   -5.585601722677629E-1    1.127653178011500E-1
 3.060006400000000E9     2.194158740958621E-1    2.357557540188606E-1   -1.400433811276366E1    -5.532010608348550      -3.173360939733361E-4    7.370815428692855E-5    2.076185356245841E-1    3.831236365611247E-1
 3.102506350000000E9     2.773661416711951E-1   -1.975084671793185E-1   -1.378781624887762       1.597343057115297E1     1.194745913258181E-4    3.406918945764817E-4    1.808246733192870E-1   -2.312289578787904E-1
 3.145006300000000E9    -1.673182556326892E-1   -3.194077223665581E-1    1.782785993843137E1    -3.687009767680532       4.103945628756677E-4   -1.933614517396909E-4   -1.897314622828715E-1   -1.949089674296450E-3
 3.187506250000000E9    -3.528744867441338E-1    1.402798764408764E-1   -1.135226535840870E1    -1.848841937151983E1    -3.789153534090449E-4   -3.636439553845622E-4    1.208376394614134E-1    1.170589023600131E-1
 3.230006200000000E9     1.339067103907844E-1    3.728381571634801E-1   -1.354784462715942E1     2.151928384196685E1    -1.922970559190431E-4    6.412792405433496E-4    6.767801043876071E-2   -1.587398205185613E-1
 3.272506150000000E9     3.673946632169580E-1   -1.311861479799881E-1    2.576272751603169E1     8.211429176148891E-1    6.677969112097480E-4   -1.127460510520341E-4   -1.406061176625155E-1   -9.879052403688741E-2
 3.315006100000000E9    -9.191009597675925E-2   -3.472207302020127E-1   -8.818780669428746      -2.084065693478523E1    -3.438396317667298E-4   -5.674351909825954E-4   -1.640472342407078E-1    1.696429861864757E-1
 3.357506050000000E9    -3.334947888946948E-1    3.516684648755842E-2   -1.516083661026103E1     1.283481777454918E1    -4.607192321826505E-4    3.805570873688255E-4    2.248824367974694E-1    2.062997544207056E-1
 3.400006000000000E9    -1.907272414814085E-2    3.236409440471970E-1    1.475916360073523E1     1.114338719131047E1     4.033315097173019E-4    3.622731927262008E-4    2.356780938777650E-1   -2.665004839343660E-1
 3.442505950000000E9     3.236939946879832E-1    7.481221498488609E-2    8.315667122593229      -1.756943993296100E1     2.690313612251662E-4   -4.904426750224000E-4   -2.767517830389309E-1   -2.415301227815564E-1
 3.485005900000000E9     1.375161134778900E-1   -3.379761110102617E-1   -2.281635209698959E1    -2.203489320603858      -7.945447855484841E-4   -1.491320775311428E-4   -2.034965533045921E-1    2.405335389324390E-1
 3.527505850000000E9    -3.685308891552459E-1   -1.724180010878307E-1    1.209364756149537E1     2.102315203916729E1     2.325398830496333E-4    8.769080569074919E-4    1.019624096429073E-1    1.934377316571497E-1
 3.570005800000000E9    -1.647179333277129E-1    3.530245775061232E-1    7.348437803647756      -1.570383455277591E1     4.212756174783066E-4   -4.972087155913943E-4    3.324841673056658E-1    6.451335348616083E-4
 3.612505750000000E9     3.121544760000659E-1    1.819137863154172E-1   -1.081464545851760E1    -1.364219196950899      -4.175077638184209E-4   -1.866226499428003E-4    1.663557149549727E-2   -4.213856657200341E-1
 3.655005700000000E9     2.117578343757840E-1   -2.739276763328533E-1   -4.175177523053453E-2    7.448853642469116      -6.582347997326390E-5    3.409103401003765E-4   -4.502695053360269E-1   -2.560349596561366E-2
 3.697505650000000E9    -2.379140021159187E-1   -2.385403546078681E-1    5.660649878672919      -3.054090402366593E-1    2.120560579459672E-4    9.668967076374729E-5   -3.754730161996780E-2    4.619579623374469E-1
 3.740005600000000E9    -2.626801383850640E-1    2.053823175406945E-1   -4.461933114897700E-1   -4.464103018010772       8.705408312680322E-5   -1.534826545459093E-4    4.695146681002059E-1    5.542814455489906E-2
 3.782505550000000E9     1.693039823812348E-1    2.854425445209057E-1   -3.665128484709863       3.241267500695212E-1   -2.185505103949226E-4   -8.413116634902612E-5    8.005123523905365E-2   -4.689339140706852E-1
 3.825005500000000E9     3.033501376132036E-1   -1.303591478955367E-1    1.949098408002364E-1    3.273336352690185      -5.045635551917005E-5    1.246675634457511E-4   -4.523860489061195E-1   -9.962418306376625E-2
